!BFP420 S-PARAMETERS (SIMULATION WITH PACKAGE & BIAS)
!Vcc=10V, Ic=4mA, Vce=5V
!Z0=50 Ohm, MA/DE Format

# GHZ S MA R 50

!Freq    S11 M    S11 A    S21 M    S21 A    S12 M    S12 A    S22 M    S22 A   
1.00     0.72     -63.46   9.12     -47.91   0.07     -123.47  0.81     -35.02
1.50     0.62     -90.55   7.73     -66.46   0.09     -135.00  0.68     -47.33
2.00     0.54     -114.78  6.55     -81.68   0.10     -143.53  0.56     -56.65
2.51     0.49     -137.09  5.60     -94.71   0.12     -150.16  0.46     -64.15
3.01     0.46     -157.57  4.85     -106.24  0.12     -155.61  0.38     -70.62
3.26     0.46     -167.02  4.53     -111.54  0.13     -158.04  0.34     -73.64
3.52     0.46     -175.96  4.25     -116.64  0.13     -160.34  0.31     -76.62
3.77     0.46     175.69   4.00     -121.49  0.13     -162.52  0.28     -79.59
4.01     0.46     168.03   3.78     -126.08  0.14     -164.58  0.25     -82.58
4.25     0.47     161.09   3.58     -130.38  0.14     -166.52  0.22     -85.61
4.50     0.47     154.21   3.39     -134.79  0.14     -168.53  0.19     -89.05
4.77     0.48     147.41   3.21     -139.34  0.15     -170.62  0.17     -93.11
5.02     0.49     141.37   3.06     -143.56  0.15     -172.60  0.14     -97.55
5.26     0.51     136.09   2.92     -147.40  0.15     -174.43  0.12     -102.48
5.50     0.52     130.88   2.79     -151.34  0.16     -176.33  0.10     -108.89
5.76     0.53     125.75   2.66     -155.38  0.16     -178.33  0.08     -117.78
6.03     0.54     120.69   2.54     -159.53  0.16     179.59   0.07     -131.09
6.50     0.56     112.65   2.35     -166.49  0.17     175.99   0.05     -169.57
7.00     0.59     104.78   2.18     -173.74  0.17     172.09   0.06     144.39
7.50     0.61     97.67    2.02     179.30   0.18     168.21   0.08     119.93
8.04     0.63     90.66    1.88     172.07   0.18     164.03   0.12     106.20
8.51     0.65     84.89    1.77     165.85   0.19     160.31   0.15     98.29
9.02     0.67     79.16    1.66     159.43   0.19     156.35   0.18     91.92
9.55     0.69     73.44    1.56     152.82   0.19     152.14   0.21     86.39
10.00    0.70     68.87    1.49     147.39   0.20     148.57   0.23     82.33  