Freq.	S11(V2)	S12(V2)	S21(V2)	S22(V2)
1.00000000000000e+09	(-2.86771051514661e+00dB,-6.31493979879090e+01Ḟ)	(-2.31113268807253e+01dB,-1.23400368870826e+02Ḟ)	(1.91436494046214e+01dB,-4.77194765502163e+01Ḟ)	(-1.79828592691357e+00dB,-3.49754375138589e+01Ḟ)
1.00575862496284e+09	(-2.88207110087755e+00dB,-6.34768947626749e+01Ḟ)	(-2.30752389289995e+01dB,-1.23553159645665e+02Ḟ)	(1.91283785706543e+01dB,-4.79532526723938e+01Ḟ)	(-1.81492051000064e+00dB,-3.51373500268710e+01Ḟ)
1.01155041168714e+09	(-2.89653801289399e+00dB,-6.38058190736292e+01Ḟ)	(-2.30392573192569e+01dB,-1.23706321547833e+02Ḟ)	(1.91129849375099e+01dB,-4.81878400218329e+01Ḟ)	(-1.83169468419684e+00dB,-3.52996865551145e+01Ḟ)
1.01737555113905e+09	(-2.91111148488109e+00dB,-6.41361747289851e+01Ḟ)	(-2.30033824343293e+01dB,-1.23859851643332e+02Ḟ)	(1.90974679474493e+01dB,-4.84232377699873e+01Ḟ)	(-1.84860922546947e+00dB,-3.54624444941534e+01Ḟ)
1.02323423538443e+09	(-2.92579173968945e+00dB,-6.44679655329017e+01Ḟ)	(-2.29676146505193e+01dB,-1.24013746952867e+02Ḟ)	(1.90818270475764e+01dB,-4.86594450481916e+01Ḟ)	(-1.86566490833759e+00dB,-3.56256212002796e+01Ḟ)
1.02912665759514e+09	(-2.94057898953556e+00dB,-6.48011953167647e+01Ḟ)	(-2.29319543394709e+01dB,-1.24168004487265e+02Ḟ)	(1.90660616879547e+01dB,-4.88964609830026e+01Ḟ)	(-1.88286250631897e+00dB,-3.57892140278385e+01Ḟ)
1.03505301205549e+09	(-2.95547343434776e+00dB,-6.51358678967535e+01Ḟ)	(-2.28964018647437e+01dB,-1.24322621187166e+02Ḟ)	(1.90501713250212e+01dB,-4.91342846358097e+01Ḟ)	(-1.90020279138560e+00dB,-3.59532202543222e+01Ḟ)
1.04101349416858e+09	(-2.97047526294079e+00dB,-6.54719871275278e+01Ḟ)	(-2.28609575855890e+01dB,-1.24477593994085e+02Ḟ)	(1.90341554177977e+01dB,-4.93729150738196e+01Ḟ)	(-1.91768653457441e+00dB,-3.61176371648622e+01Ḟ)
1.04700830046275e+09	(-2.98558465211087e+00dB,-6.58095568376629e+01Ḟ)	(-2.28256218527634e+01dB,-1.24632919780272e+02Ḟ)	(1.90180134320646e+01dB,-4.96123512998353e+01Ḟ)	(-1.93531450483740e+00dB,-3.62824619822828e+01Ḟ)
1.05303762859809e+09	(-3.00080176654042e+00dB,-6.61485808927630e+01Ḟ)	(-2.27903950120181e+01dB,-1.24788595410125e+02Ḟ)	(1.90017448368598e+01dB,-4.98525923135860e+01Ḟ)	(-1.95308747015828e+00dB,-3.64476919213187e+01Ḟ)
1.05910167737295e+09	(-3.01612675828917e+00dB,-6.64890631617041e+01Ḟ)	(-2.27552774018950e+01dB,-1.24944617704854e+02Ḟ)	(1.89853491066700e+01dB,-5.00936370763035e+01Ḟ)	(-1.97100619690664e+00dB,-3.66133241548624e+01Ḟ)
1.06520064673045e+09	(-3.03155976712748e+00dB,-6.68310075196339e+01Ḟ)	(-2.27202693541231e+01dB,-1.25100983453765e+02Ḟ)	(1.89688257210221e+01dB,-5.03354845219206e+01Ḟ)	(-1.98907144965591e+00dB,-3.67793558337363e+01Ḟ)
1.07133473776515e+09	(-3.04710091893246e+00dB,-6.71744178517345e+01Ḟ)	(-2.26853711927840e+01dB,-1.25257689398250e+02Ḟ)	(1.89521741653051e+01dB,-5.05781335409719e+01Ḟ)	(-2.00728399158702e+00dB,-3.69457840502851e+01Ḟ)
1.07750415272960e+09	(-3.06275032795048e+00dB,-6.75192980687268e+01Ḟ)	(-2.26505832367733e+01dB,-1.25414732283329e+02Ḟ)	(1.89353939282968e+01dB,-5.08215830320457e+01Ḟ)	(-2.02564458401221e+00dB,-3.71126059253151e+01Ḟ)
1.08370909504107e+09	(-3.07850809315644e+00dB,-6.78656520778516e+01Ḟ)	(-2.26159057956715e+01dB,-1.25572108780879e+02Ḟ)	(1.89184845062807e+01dB,-5.10658318249149e+01Ḟ)	(-2.04415398670084e+00dB,-3.72798184857013e+01Ḟ)
1.08994976928823e+09	(-3.09437430117010e+00dB,-6.82134838071839e+01Ḟ)	(-2.25813391731640e+01dB,-1.25729815558996e+02Ḟ)	(1.89014453996136e+01dB,-5.13108787498092e+01Ḟ)	(-2.06281295738923e+00dB,-3.74474187774547e+01Ḟ)
1.09622638123790e+09	(-3.11034902400970e+00dB,-6.85627972172460e+01Ḟ)	(-2.25468836662900e+01dB,-1.25887849265086e+02Ḟ)	(1.88842761134645e+01dB,-5.15567226204039e+01Ḟ)	(-2.08162225250942e+00dB,-3.76154038182379e+01Ḟ)
1.10253913784181e+09	(-3.12643231938444e+00dB,-6.89135962309737e+01Ḟ)	(-2.25125395614233e+01dB,-1.26046206465336e+02Ḟ)	(1.88669761618217e+01dB,-5.18033621731937e+01Ḟ)	(-2.10058262565603e+00dB,-3.77837705551172e+01Ḟ)
1.10888824724350e+09	(-3.14262423044307e+00dB,-6.92658848475350e+01Ḟ)	(-2.24783071410399e+01dB,-1.26204883756743e+02Ḟ)	(1.88495450607134e+01dB,-5.20507961794191e+01Ḟ)	(-2.11969482965917e+00dB,-3.79525159612584e+01Ḟ)
1.11527391878507e+09	(-3.15892478548989e+00dB,-6.96196670405956e+01Ḟ)	(-2.24441866773777e+01dB,-1.26363877667081e+02Ḟ)	(1.88319823345356e+01dB,-5.22990233449296e+01Ḟ)	(-2.13895961462861e+00dB,-3.81216369500772e+01Ḟ)
1.12169636301419e+09	(-3.17533399772657e+00dB,-6.99749468155359e+01Ḟ)	(-2.24101784357991e+01dB,-1.26523184711600e+02Ḟ)	(1.88142875126775e+01dB,-5.25480423667728e+01Ḟ)	(-2.15837772898079e+00dB,-3.82911304245201e+01Ḟ)
1.12815579169097e+09	(-3.19185186533172e+00dB,-7.03317281931567e+01Ḟ)	(-2.23762826738887e+01dB,-1.26682801382102e+02Ḟ)	(1.87964601304123e+01dB,-5.27978519221679e+01Ḟ)	(-2.17794991896160e+00dB,-3.84609932737472e+01Ḟ)
1.13465241779498e+09	(-3.20847836982181e+00dB,-7.06900152170898e+01Ḟ)	(-2.23424996408554e+01dB,-1.26842724135423e+02Ḟ)	(1.87784997294824e+01dB,-5.30484506568698e+01Ḟ)	(-2.19767692915567e+00dB,-3.86312223413522e+01Ḟ)
1.14118645553224e+09	(-3.22521347774505e+00dB,-7.10498119343849e+01Ḟ)	(-2.23088295774983e+01dB,-1.27002949401746e+02Ḟ)	(1.87604058581224e+01dB,-5.32998371933748e+01Ḟ)	(-2.21755950149385e+00dB,-3.88018144648309e+01Ḟ)
1.14775812034232e+09	(-3.24205713880050e+00dB,-7.14111224133360e+01Ḟ)	(-2.22752727160954e+01dB,-1.27163473580165e+02Ḟ)	(1.87421780711585e+01dB,-5.35520101263663e+01Ḟ)	(-2.23759837602620e+00dB,-3.89727664461054e+01Ḟ)
1.15436762890542e+09	(-3.25900928608096e+00dB,-7.17739507717327e+01Ḟ)	(-2.22418292824705e+01dB,-1.27324293075510e+02Ḟ)	(1.87238159279296e+01dB,-5.38049680594187e+01Ḟ)	(-2.25779429119169e+00dB,-3.91440750927492e+01Ḟ)
1.16101519914953e+09	(-3.27606983600092e+00dB,-7.21383011016142e+01Ḟ)	(-2.22084994911293e+01dB,-1.27485404224426e+02Ḟ)	(1.87053189971397e+01dB,-5.40587095309625e+01Ḟ)	(-2.27814798243726e+00dB,-3.93157371568339e+01Ḟ)
1.16770105025759e+09	(-3.29323868788637e+00dB,-7.25041775343094e+01Ḟ)	(-2.21752835492247e+01dB,-1.27646803360343e+02Ḟ)	(1.86866868528810e+01dB,-5.43132330791245e+01Ḟ)	(-2.29866018331776e+00dB,-3.94877493901981e+01Ḟ)
1.17442540267474e+09	(-3.31051572317997e+00dB,-7.28715842453119e+01Ḟ)	(-2.21421816564694e+01dB,-1.27808486812464e+02Ḟ)	(1.86679190747101e+01dB,-5.45685372405968e+01Ḟ)	(-2.31933162572008e+00dB,-3.96601085362590e+01Ḟ)
1.18118847811557e+09	(-3.32790080601982e+00dB,-7.32405254007607e+01Ḟ)	(-2.21091940020274e+01dB,-1.27970450862310e+02Ḟ)	(1.86490152507450e+01dB,-5.48246205070481e+01Ḟ)	(-2.34016303863633e+00dB,-3.98328113055441e+01Ḟ)
1.18799049957147e+09	(-3.34539378243150e+00dB,-7.36110051913003e+01Ḟ)	(-2.20763207662570e+01dB,-1.28132691771882e+02Ḟ)	(1.86299749759102e+01dB,-5.50814813531604e+01Ḟ)	(-2.36115514888714e+00dB,-4.00058543927517e+01Ḟ)
1.19483169131792e+09	(-3.36299447960138e+00dB,-7.39830278434117e+01Ḟ)	(-2.20435621210746e+01dB,-1.28295205790279e+02Ḟ)	(1.86107978515628e+01dB,-5.53391182431107e+01Ḟ)	(-2.38230868143247e+00dB,-4.01792344764606e+01Ḟ)
1.20171227892193e+09	(-3.38070270650932e+00dB,-7.43565976182110e+01Ḟ)	(-2.20109182303999e+01dB,-1.28457989165902e+02Ḟ)	(1.85914834850354e+01dB,-5.55975296426396e+01Ḟ)	(-2.40362435896344e+00dB,-4.03529482448795e+01Ḟ)
1.20863248924948e+09	(-3.39851825243502e+00dB,-7.47317187554597e+01Ḟ)	(-2.19783892453443e+01dB,-1.28621038070399e+02Ḟ)	(1.85720314944367e+01dB,-5.58567139428622e+01Ḟ)	(-2.42510290149629e+00dB,-4.05269923097650e+01Ḟ)
1.21559255047297e+09	(-3.41644088862413e+00dB,-7.51083955785766e+01Ḟ)	(-2.19459753126972e+01dB,-1.28784348738554e+02Ḟ)	(1.85524415001547e+01dB,-5.61166696000109e+01Ḟ)	(-2.44674502721619e+00dB,-4.07013633621900e+01Ḟ)
1.22259269207877e+09	(-3.43447036504351e+00dB,-7.54866323860776e+01Ḟ)	(-2.19136765652408e+01dB,-1.28947917311873e+02Ḟ)	(1.85327131345311e+01dB,-5.63773949788804e+01Ḟ)	(-2.46855145191107e+00dB,-4.08760579878313e+01Ḟ)
1.22963314487476e+09	(-3.45260641312855e+00dB,-7.58664335352479e+01Ḟ)	(-2.18814931295747e+01dB,-1.29111739970957e+02Ḟ)	(1.85128460340256e+01dB,-5.66388884850584e+01Ḟ)	(-2.49052288908269e+00dB,-4.10510728326766e+01Ḟ)
1.23671414099797e+09	(-3.47084874327101e+00dB,-7.62478033807844e+01Ḟ)	(-2.18494251201429e+01dB,-1.29275812839188e+02Ḟ)	(1.84928398451790e+01dB,-5.69011484684554e+01Ḟ)	(-2.51266004987097e+00dB,-4.12264044832299e+01Ḟ)
1.24383591392222e+09	(-3.48919704515656e+00dB,-7.66307463333166e+01Ḟ)	(-2.18174726437514e+01dB,-1.29440132056329e+02Ḟ)	(1.84726942200845e+01dB,-5.71641732967603e+01Ḟ)	(-2.53496364364313e+00dB,-4.14020495433445e+01Ḟ)
1.25099869846580e+09	(-3.50765098797403e+00dB,-7.70152668185708e+01Ḟ)	(-2.17856357968842e+01dB,-1.29604693741210e+02Ḟ)	(1.84524088190623e+01dB,-5.74279613179672e+01Ḟ)	(-2.55743437720712e+00dB,-4.15780046085899e+01Ḟ)
1.25820273079927e+09	(-3.52621021938309e+00dB,-7.74013692808636e+01Ḟ)	(-2.17539146653291e+01dB,-1.29769493986133e+02Ḟ)	(1.84319833110228e+01dB,-5.76925108546265e+01Ḟ)	(-2.58007295517647e+00dB,-4.17542662507832e+01Ḟ)
1.26544824845316e+09	(-3.54487436583670e+00dB,-7.77890582058987e+01Ḟ)	(-2.17223093261837e+01dB,-1.29934528891609e+02Ḟ)	(1.84114173714513e+01dB,-5.79578202384206e+01Ḟ)	(-2.60288008000631e+00dB,-4.19308310595166e+01Ḟ)
1.27273549032589e+09	(-3.56364303109580e+00dB,-7.81783381021224e+01Ḟ)	(-2.16908198455769e+01dB,-1.30099794530494e+02Ḟ)	(1.83907106846766e+01dB,-5.82238877741377e+01Ḟ)	(-2.62585645223574e+00dB,-4.21076955927364e+01Ḟ)
1.28006469669157e+09	(-3.58251579729733e+00dB,-7.85692135018932e+01Ḟ)	(-2.16594462795913e+01dB,-1.30265286968293e+02Ḟ)	(1.83698629429384e+01dB,-5.84907117598126e+01Ḟ)	(-2.64900276997697e+00dB,-4.22848564159897e+01Ḟ)
1.28743610920799e+09	(-3.60149222367569e+00dB,-7.89616889818203e+01Ḟ)	(-2.16281886750608e+01dB,-1.30431002274526e+02Ḟ)	(1.83488738455809e+01dB,-5.87582904979174e+01Ḟ)	(-2.67231972955382e+00dB,-4.24623100994399e+01Ḟ)
1.29484997092453e+09	(-3.62057184699303e+00dB,-7.93557691400152e+01Ḟ)	(-2.15970470682745e+01dB,-1.30596936507397e+02Ḟ)	(1.83277431003395e+01dB,-5.90266222798680e+01Ḟ)	(-2.69580802495378e+00dB,-4.26400532151006e+01Ḟ)
1.30230652629023e+09	(-3.63975418020519e+00dB,-7.97514585921611e+01Ḟ)	(-2.15660214838348e+01dB,-1.30763085696141e+02Ḟ)	(1.83064704244732e+01dB,-5.92957053681901e+01Ḟ)	(-2.71946834823570e+00dB,-4.28180823063010e+01Ḟ)
1.30980602116179e+09	(-3.65903871212855e+00dB,-8.01487620110074e+01Ḟ)	(-2.15351119376652e+01dB,-1.30929445888241e+02Ḟ)	(1.82850555417482e+01dB,-5.95655380435635e+01Ḟ)	(-2.74330138999440e+00dB,-4.29963939320074e+01Ḟ)
1.31734870281173e+09	(-3.67842490981332e+00dB,-8.05476840776286e+01Ḟ)	(-2.15043184350028e+01dB,-1.31096013128666e+02Ḟ)	(1.82634981844364e+01dB,-5.98361185838776e+01Ḟ)	(-2.76730783776068e+00dB,-4.31749846863457e+01Ḟ)
1.32493481993651e+09	(-3.69791221249863e+00dB,-8.09482295264876e+01Ḟ)	(-2.14736409698785e+01dB,-1.31262783438714e+02Ḟ)	(1.82417980938271e+01dB,-6.01074452428890e+01Ḟ)	(-2.79148837888517e+00dB,-4.33538510984708e+01Ḟ)
1.33256462266473e+09	(-3.71750003905537e+00dB,-8.13504030828105e+01Ḟ)	(-2.14430795254538e+01dB,-1.31429752844222e+02Ḟ)	(1.82199550198814e+01dB,-6.03795162782504e+01Ḟ)	(-2.81584369672747e+00dB,-4.35329897688444e+01Ḟ)
1.34023836256540e+09	(-3.73718777883679e+00dB,-8.17542095645045e+01Ḟ)	(-2.14126340760277e+01dB,-1.31596917383582e+02Ḟ)	(1.81979687192176e+01dB,-6.06523299593335e+01Ḟ)	(-2.84037447535403e+00dB,-4.37123972536171e+01Ḟ)
1.34795629265623e+09	(-3.75697479909457e+00dB,-8.21596537699794e+01Ḟ)	(-2.13823045832923e+01dB,-1.31764273074901e+02Ḟ)	(1.81758389588472e+01dB,-6.09258845341989e+01Ḟ)	(-2.86508139531776e+00dB,-4.38920701427692e+01Ḟ)
1.35571866741194e+09	(-3.77686043975327e+00dB,-8.25667405543765e+01Ḟ)	(-2.13520909990588e+01dB,-1.31931815945353e+02Ḟ)	(1.81535655134417e+01dB,-6.12001782587489e+01Ḟ)	(-2.88996513646902e+00dB,-4.40720050198918e+01Ḟ)
1.36352574277268e+09	(-3.79684401595539e+00dB,-8.29754747926758e+01Ḟ)	(-2.13219932641792e+01dB,-1.32099542024893e+02Ḟ)	(1.81311481664036e+01dB,-6.14752093902476e+01Ḟ)	(-2.91502637644062e+00dB,-4.42521984967487e+01Ḟ)
1.37137777615249e+09	(-3.81692481475452e+00dB,-8.33858614086401e+01Ḟ)	(-2.12920113088545e+01dB,-1.32267447344720e+02Ḟ)	(1.81085867095503e+01dB,-6.17509761855783e+01Ḟ)	(-2.94026579227603e+00dB,-4.44326471715436e+01Ḟ)
1.37927502644772e+09	(-3.83710209738023e+00dB,-8.37979053493281e+01Ḟ)	(-2.12621450522747e+01dB,-1.32435527940825e+02Ḟ)	(1.80858809434679e+01dB,-6.20274769045869e+01Ḟ)	(-2.96568405914028e+00dB,-4.46133476685970e+01Ḟ)
1.38721775404564e+09	(-3.85737509765555e+00dB,-8.42116115799152e+01Ḟ)	(-2.12323944012121e+01dB,-1.32603779831910e+02Ḟ)	(1.80630306789108e+01dB,-6.23047097877953e+01Ḟ)	(-2.99128185098649e+00dB,-4.47942966007583e+01Ḟ)
1.39520622083298e+09	(-3.87774302250516e+00dB,-8.46269851367713e+01Ḟ)	(-2.12027592552434e+01dB,-1.32772199100039e+02Ḟ)	(1.80400357315738e+01dB,-6.25826731368366e+01Ḟ)	(-3.01705984042653e+00dB,-4.49754906583605e+01Ḟ)
1.40324069020458e+09	(-3.89820504970902e+00dB,-8.50440310451203e+01Ḟ)	(-2.11732394981522e+01dB,-1.32940781761471e+02Ḟ)	(1.80168959306825e+01dB,-6.28613651850788e+01Ḟ)	(-3.04301869943378e+00dB,-4.51569264608896e+01Ḟ)
1.41132142707207e+09	(-3.91876032987221e+00dB,-8.54627544020989e+01Ḟ)	(-2.11438350068987e+01dB,-1.33109523905716e+02Ḟ)	(1.79936111100188e+01dB,-6.31407842364573e+01Ḟ)	(-3.06915909859350e+00dB,-4.53386007215723e+01Ḟ)
1.41944869787259e+09	(-3.93940798431696e+00dB,-8.58831603097156e+01Ḟ)	(-2.11145456443811e+01dB,-1.33278421586943e+02Ḟ)	(1.79701811151532e+01dB,-6.34209285566643e+01Ḟ)	(-3.09548170786173e+00dB,-4.55205101203453e+01Ḟ)
1.42762277057763e+09	(-3.96014710541629e+00dB,-8.63052539081756e+01Ḟ)	(-2.10853712628834e+01dB,-1.33447470877790e+02Ḟ)	(1.79466057999923e+01dB,-6.37017964267343e+01Ḟ)	(-3.12198719645259e+00dB,-4.57026513650712e+01Ḟ)
1.43584391470180e+09	(-3.98097675672313e+00dB,-8.67290403845897e+01Ḟ)	(-2.10563117052653e+01dB,-1.33616667889441e+02Ḟ)	(1.79228850255837e+01dB,-6.39833861628917e+01Ḟ)	(-3.14867623266151e+00dB,-4.58850212178414e+01Ḟ)
1.44411240131174e+09	(-4.00189597148636e+00dB,-8.71545249304620e+01Ḟ)	(-2.10273668001969e+01dB,-1.33786008701266e+02Ḟ)	(1.78990186648765e+01dB,-6.42656960459601e+01Ḟ)	(-3.17554948456345e+00dB,-4.60676164126204e+01Ḟ)
1.45242850303508e+09	(-4.02290375241840e+00dB,-8.75817128158057e+01Ḟ)	(-2.09985363692306e+01dB,-1.33955489465302e+02Ḟ)	(1.78750065956458e+01dB,-6.45487244256105e+01Ḟ)	(-3.20260762000830e+00dB,-4.62504337585692e+01Ḟ)
1.46079249406940e+09	(-4.04399907345674e+00dB,-8.80106092753878e+01Ḟ)	(-2.09698202175877e+01dB,-1.34125106279341e+02Ḟ)	(1.78508487097017e+01dB,-6.48324695932071e+01Ḟ)	(-3.22985130584985e+00dB,-4.64334700451414e+01Ḟ)
1.46920465019128e+09	(-4.06518087606129e+00dB,-8.84412196226148e+01Ḟ)	(-2.09412181425621e+01dB,-1.34294855302228e+02Ḟ)	(1.78265449044816e+01dB,-6.51169298968673e+01Ḟ)	(-3.25728120958186e+00dB,-4.66167221107356e+01Ḟ)
1.47766524876539e+09	(-4.08644806945333e+00dB,-8.88735492202823e+01Ḟ)	(-2.09127299313565e+01dB,-1.34464732725251e+02Ḟ)	(1.78020950852117e+01dB,-6.54021037126055e+01Ḟ)	(-3.28489799916105e+00dB,-4.68001868238275e+01Ḟ)
1.48617456875365e+09	(-4.10779953473104e+00dB,-8.93076033916168e+01Ḟ)	(-2.08843553555811e+01dB,-1.34634734705035e+02Ḟ)	(1.77774991704049e+01dB,-6.56879893769762e+01Ḟ)	(-3.31270234116961e+00dB,-4.69838610753545e+01Ḟ)
1.49473289072441e+09	(-4.12923411705426e+00dB,-8.97433875621843e+01Ḟ)	(-2.08560941798882e+01dB,-1.34804857471576e+02Ḟ)	(1.77527570832237e+01dB,-6.59745852948599e+01Ḟ)	(-3.34069490432020e+00dB,-4.71677417888934e+01Ḟ)
1.50334049686171e+09	(-4.15075063241885e+00dB,-9.01809071254348e+01Ḟ)	(-2.08279461538728e+01dB,-1.34975097229947e+02Ḟ)	(1.77278687595775e+01dB,-6.62618898409133e+01Ḟ)	(-3.36887635645649e+00dB,-4.73518259165490e+01Ḟ)
1.51199767097459e+09	(-4.17234786162347e+00dB,-9.06201675436216e+01Ḟ)	(-2.07999110181246e+01dB,-1.35145450235350e+02Ḟ)	(1.77028341420691e+01dB,-6.65499014343595e+01Ḟ)	(-3.39724736720429e+00dB,-4.75361104405017e+01Ḟ)
1.52070469850642e+09	(-4.19402455343309e+00dB,-9.10611743044663e+01Ḟ)	(-2.07719885026028e+01dB,-1.35315912779158e+02Ḟ)	(1.76776531816185e+01dB,-6.68386185247700e+01Ḟ)	(-3.42580860640805e+00dB,-4.77205924049761e+01Ḟ)
1.52946186654434e+09	(-4.21577942323833e+00dB,-9.15039328915944e+01Ḟ)	(-2.07441783228640e+01dB,-1.35486481133930e+02Ḟ)	(1.76523258412338e+01dB,-6.71280395368116e+01Ḟ)	(-3.45456074520186e+00dB,-4.79052688499831e+01Ḟ)
1.53826946382874e+09	(-4.23761115216595e+00dB,-9.19484488399233e+01Ḟ)	(-2.07164801855655e+01dB,-1.35657151632234e+02Ḟ)	(1.76268520905081e+01dB,-6.74181629488034e+01Ḟ)	(-3.48350445591684e+00dB,-4.80901368828872e+01Ḟ)
1.54712778076271e+09	(-4.25951838740424e+00dB,-9.23947277049957e+01Ḟ)	(-2.06888937859304e+01dB,-1.35827920632989e+02Ḟ)	(1.76012319081536e+01dB,-6.77089872587828e+01Ḟ)	(-3.51264041215336e+00dB,-4.82751936544904e+01Ḟ)
1.55603710942172e+09	(-4.28149974019008e+00dB,-9.28427750714007e+01Ḟ)	(-2.06614188075630e+01dB,-1.35998784516271e+02Ḟ)	(1.75754652821874e+01dB,-6.80005109790357e+01Ḟ)	(-3.54196928985345e+00dB,-4.84604363338806e+01Ḟ)
1.56499774356314e+09	(-4.30355378872968e+00dB,-9.32925965212868e+01Ḟ)	(-2.06340549215652e+01dB,-1.36169739679306e+02Ḟ)	(1.75495522108151e+01dB,-6.82927326318090e+01Ḟ)	(-3.57149176596578e+00dB,-4.86458621456779e+01Ḟ)
1.57400997863601e+09	(-4.32567907463136e+00dB,-9.37441976740527e+01Ḟ)	(-2.06068017886519e+01dB,-1.36340782560332e+02Ḟ)	(1.75234927003177e+01dB,-6.85856507728913e+01Ḟ)	(-3.60120852002614e+00dB,-4.88314683544196e+01Ḟ)
1.58307411179074e+09	(-4.34787410380394e+00dB,-9.41975841821850e+01Ḟ)	(-2.05796590598981e+01dB,-1.36511909653142e+02Ḟ)	(1.74972867643055e+01dB,-6.88792640058643e+01Ḟ)	(-3.63112023352333e+00dB,-4.90172522953492e+01Ḟ)
1.59219044188892e+09	(-4.37013734552666e+00dB,-9.46527616947506e+01Ḟ)	(-2.05526263723724e+01dB,-1.36683117444553e+02Ḟ)	(1.74709344280872e+01dB,-6.91735709192836e+01Ḟ)	(-3.66122759119894e+00dB,-4.92032113056982e+01Ḟ)
1.60135926951318e+09	(-4.39246723271348e+00dB,-9.51097359005962e+01Ḟ)	(-2.05257033547418e+01dB,-1.36854402496517e+02Ḟ)	(1.74444357230684e+01dB,-6.94685701684968e+01Ḟ)	(-3.69153127994361e+00dB,-4.93893428147461e+01Ḟ)
1.61058089697707e+09	(-4.41486216303950e+00dB,-9.55685124581781e+01Ḟ)	(-2.04988896204384e+01dB,-1.37025761353024e+02Ḟ)	(1.74177906935872e+01dB,-6.97642603822450e+01Ḟ)	(-3.72203198961586e+00dB,-4.95756442692888e+01Ḟ)
1.61985562833507e+09	(-4.43732049464051e+00dB,-9.60290970926134e+01Ḟ)	(-2.04721847762948e+01dB,-1.37197190655066e+02Ḟ)	(1.73909993882837e+01dB,-7.00606402773249e+01Ḟ)	(-3.75273041356587e+00dB,-4.97621132012435e+01Ḟ)
1.62918376939260e+09	(-4.45984054933807e+00dB,-9.64914955062186e+01Ḟ)	(-2.04455884149816e+01dB,-1.37368687041756e+02Ḟ)	(1.73640618676658e+01dB,-7.03577085594070e+01Ḟ)	(-3.78362724862310e+00dB,-4.99487471727600e+01Ḟ)
1.63856562771608e+09	(-4.48242060988694e+00dB,-9.69557134305831e+01Ḟ)	(-2.04191001196601e+01dB,-1.37540247211907e+02Ḟ)	(1.73369781994627e+01dB,-7.06554639843010e+01Ḟ)	(-3.81472319560744e+00dB,-5.01355438094367e+01Ḟ)
1.64800151264309e+09	(-4.50505892084513e+00dB,-9.74217565978944e+01Ḟ)	(-2.03927194617487e+01dB,-1.37711867895787e+02Ḟ)	(1.73097484608629e+01dB,-7.09539053294000e+01Ḟ)	(-3.84601895945850e+00dB,-5.03225007873211e+01Ḟ)
1.65749173529260e+09	(-4.52775368954797e+00dB,-9.78896307338164e+01Ḟ)	(-2.03664460013043e+01dB,-1.37883545863891e+02Ḟ)	(1.72823727381391e+01dB,-7.12530314021360e+01Ḟ)	(-3.87751524877799e+00dB,-5.05096158579303e+01Ḟ)
1.66703660857515e+09	(-4.55050308280098e+00dB,-9.83593415842002e+01Ḟ)	(-2.03402792884464e+01dB,-1.38055277941355e+02Ḟ)	(1.72548511252311e+01dB,-7.15528410540759e+01Ḟ)	(-3.90921277728967e+00dB,-5.06968868279690e+01Ḟ)
1.67663644720326e+09	(-4.57330522779845e+00dB,-9.88308948937278e+01Ḟ)	(-2.03142188620098e+01dB,-1.38227060992260e+02Ḟ)	(1.72271837251001e+01dB,-7.18533331648989e+01Ḟ)	(-3.94111226381678e+00dB,-5.08843115592535e+01Ḟ)
1.68629156770173e+09	(-4.59615821267259e+00dB,-9.93042963994171e+01Ḟ)	(-2.02882642497418e+01dB,-1.38398891924698e+02Ḟ)	(1.71993706495391e+01dB,-7.21545066471394e+01Ḟ)	(-3.97321443210768e+00dB,-5.10718879848609e+01Ḟ)
