!BFP420 S PARAMETERS (T2G5)
! Vcc=10 V Ic=4 mA 
! Vce=5 V  Vbe=1 V
! Tc=25C,  Z0=50 ohms

# GHZ S MA R 50

1.00    0.50    -71.84    14.80    119.54    0.03    55.48    0.69    -27.60
1.50    0.44    -102.04   11.23    100.95    0.04    52.41    0.58    -34.80
2.00    0.42    -124.77   8.79     88.60     0.05    53.07    0.51    -39.36
2.50    0.42    -142.18   7.14     79.16     0.06    54.88    0.47    -42.84
3.00    0.43    -156.09   5.98     71.18     0.07    56.63    0.44    -46.06
3.25    0.44    -162.22   5.53     67.48     0.08    57.34    0.43    -47.74
3.50    0.45    -168.04   5.13     63.89     0.08    57.92    0.43    -49.50
3.75    0.46    -173.66   4.79     60.36     0.09    58.37    0.42    -51.34
4.00    0.48    -179.18   4.48     56.88     0.10    58.68    0.42    -53.28
4.25    0.49    175.40    4.21     53.44     0.10    58.84    0.41    -55.33
4.50    0.51    170.11    3.96     50.04     0.11    58.85    0.41    -57.48
4.75    0.53    164.98    3.73     46.66     0.11    58.70    0.41    -59.73
5.00    0.55    160.03    3.52     43.32     0.12    58.38    0.41    -62.06
5.25    0.57    155.28    3.32     40.01     0.13    57.91    0.41    -64.48
5.50    0.59    150.75    3.14     36.72     0.13    57.28    0.42    -66.95
5.75    0.61    146.46    2.97     33.48     0.14    56.51    0.42    -69.46
6.00    0.63    142.42    2.81     30.29     0.14    55.60    0.43    -71.97
6.50    0.67    135.13    2.53     24.11     0.15    53.44    0.45    -76.84
7.00    0.70    128.91    2.29     18.27     0.16    50.93    0.47    -81.25
7.50    0.73    123.67    2.08     12.83     0.17    48.16    0.49    -85.12
8.00    0.75    119.29    1.89     7.79      0.17    45.19    0.51    -88.45
8.50    0.77    115.65    1.73     3.16      0.18    42.10    0.53    -91.29
9.00    0.79    112.63    1.58     -1.09     0.18    38.93    0.55    -93.70
9.50    0.81    110.09    1.45     -4.95     0.18    35.74    0.57    -95.73
10.00   0.82    107.91    1.34     -8.45     0.19    32.57    0.59    -97.43